
**** 04/08/21 16:18:36 *********** Evaluation PSpice (Nov 1999) **************

 * E:\10th Semester\CSE250\BuX\Lab\Lab 02\Schematic2.sch


 ****     CIRCUIT DESCRIPTION


******************************************************************************




* Schematics Version 9.1 - Web Update 1
* Thu Apr 08 16:18:33 2021



** Analysis setup **
.OP 


* From [PSPICE NETLIST] section of pspiceev.ini:
.lib "nom.lib"

.INC "Schematic2.net"

**** INCLUDING Schematic2.net ****
* Schematics Netlist *



R_R2         0 $N_0001  1k  
R_R6         0 $N_0002  1k  
R_R1         $N_0003 $N_0001  10k  
R_R3         $N_0001 $N_0004  10k  
R_R5         $N_0004 $N_0002  10k  
R_R4         0 $N_0004  1k  
V_V1         $N_0003 0 12V

**** RESUMING Schematic2.cir ****
.INC "Schematic2.als"



**** INCLUDING Schematic2.als ****
* Schematics Aliases *

.ALIASES
R_R2            R2(1=0 2=$N_0001 )
R_R6            R6(1=0 2=$N_0002 )
R_R1            R1(1=$N_0003 2=$N_0001 )
R_R3            R3(1=$N_0001 2=$N_0004 )
R_R5            R5(1=$N_0004 2=$N_0002 )
R_R4            R4(1=0 2=$N_0004 )
V_V1            V1(+=$N_0003 -=0 )
.ENDALIASES


**** RESUMING Schematic2.cir ****
.probe


.END

**** 04/08/21 16:18:36 *********** Evaluation PSpice (Nov 1999) **************

 * E:\10th Semester\CSE250\BuX\Lab\Lab 02\Schematic2.sch


 ****     SMALL SIGNAL BIAS SOLUTION       TEMPERATURE =   27.000 DEG C


******************************************************************************



 NODE   VOLTAGE     NODE   VOLTAGE     NODE   VOLTAGE     NODE   VOLTAGE


($N_0001)    1.0070                   ($N_0002)     .0077                       

($N_0003)   12.0000                   ($N_0004)     .0846                   




    VOLTAGE SOURCE CURRENTS
    NAME         CURRENT

    V_V1        -1.099E-03

    TOTAL POWER DISSIPATION   1.32E-02  WATTS


**** 04/08/21 16:18:36 *********** Evaluation PSpice (Nov 1999) **************

 * E:\10th Semester\CSE250\BuX\Lab\Lab 02\Schematic2.sch


 ****     OPERATING POINT INFORMATION      TEMPERATURE =   27.000 DEG C


******************************************************************************





          JOB CONCLUDED

          TOTAL JOB TIME             .02
